! Touchstone file exported from HFSS 2025.2.0
!        File:           C:/Users/kaane/AnsysMaxwellExercise/patch_2p45GHz_PyAEDT_MODULE_12/patch_showcase/Patch_2p45GHz_Showcase.aedt
!        Generated:      12:44:49 PM May  1, 2026
!        Design:         Patch_InsetFed
!        Project:        Patch_2p45GHz_Showcase
!
! Variables:
!        f0 = 2.45GHz
!        feed_W = 3mm
!        inset_d = 9mm
!        inset_g = 1mm
!        patch_L = 28.2mm
!        patch_W = 38mm
!
# GHz S MA R 50.000000
! Terminal data exported
! Port[1] = P1
2                              0.938484244819497 -47.41932936018  
2.0025                         0.938235410112117 -47.7614946322532 
2.005                          0.93798378957951 -48.1043138336304 
2.0075                         0.937729333534492 -48.4477956134344 
2.01                           0.937471990982184 -48.7919487831965 
2.0125                         0.937211709580927 -49.136782320929 
2.015                          0.936948435601794 -49.4823053753209 
2.0175                         0.936682113886667 -49.8285272700598 
2.02                           0.936412687804808 -50.1754575082859 
2.0225                         0.93614009920786 -50.5231057771819 
2.025                          0.935864288383228 -50.8714819527025 
2.0275                         0.935585194005753 -51.2205961044515 
2.03                           0.935302753087626 -51.570458500708 
2.0325                         0.935016900926456 -51.9210796136093 
2.035                          0.934727571051424 -52.2724701244963 
2.0375                         0.934434695167436 -52.6246409294247 
2.04                           0.934138203097194 -52.9776031448512 
2.0425                         0.933838022721096 -53.3313681134993 
2.045                          0.933534079914869 -53.68594741041  
2.0475                         0.933226298484845 -54.0413528491872 
2.05                           0.932914600100771 -54.3975964884425 
2.0525                         0.932598904226056 -54.7546906384471 
2.055                          0.932279128045324 -55.1126478679992 
2.0575                         0.931955186389184 -55.4714810115142 
2.06                           0.931626991656072 -55.8312031763466 
2.0625                         0.931294453731042 -56.1918277503512 
2.065                          0.930957479901379 -56.5533684096935 
2.0675                         0.930615974768878 -56.9158391269189 
2.07                           0.930269840158657 -57.2792541792888 
2.0725                         0.92991897502433 -57.643628157396 
2.075                          0.929563275349392 -58.0089759740686 
2.0775                         0.929202634044634 -58.3753128735736 
2.08                           0.928836940841409 -58.7426544411318 
2.0825                         0.928466082180564 -59.1110166127566 
2.085                          0.928089941096829 -59.4804156854288 
2.0875                         0.927708397098466 -59.8508683276194 
2.09                           0.927321326041935 -60.2223915901769 
2.0925                         0.92692860000138 -60.5950029175898 
2.095                          0.926530087132655 -60.968720159642 
2.0975                         0.926125651531652 -61.3435615834752 
2.1                            0.925715153086657 -61.719545886075 
2.1025                         0.925298447324454 -62.0966922071968 
2.105                          0.924875385249867 -62.475020142751 
2.1075                         0.924445813178433 -62.8545497586637 
2.11                           0.924009572561866 -63.2353016052334 
2.1125                         0.923566499805975 -63.6172967320046 
2.115                          0.923116426080654 -64.0005567031768 
2.1175                         0.922659177121553 -64.385103613574 
2.12                           0.922194573023039 -64.7709601051952 
2.1225                         0.921722428021988 -65.1581493843711 
2.125                          0.921242550271978 -65.5466952395521 
2.1275                         0.920754741607374 -65.9366220597533 
2.13                           0.920258797296823 -66.3279548536841 
2.1325                         0.919754505785607 -66.7207192695922 
2.135                          0.919241648426286 -67.1149416158495 
2.1375                         0.918719999197047 -67.510648882314 
2.14                           0.918189324407109 -67.9078687624991 
2.1425                         0.917649382388531 -68.3066296765851 
2.145                          0.917099923173707 -68.7069607953076 
2.1475                         0.916540688157811 -69.1088920647631 
2.15                           0.915971409745389 -69.5124542321686 
2.1525                         0.915391810980284 -69.9176788726169 
2.155                          0.91480160515799 -70.3245984168721 
2.1575                         0.914200495419514 -70.733246180249 
2.16                           0.913588174325757 -71.1436563926233 
2.1625                         0.912964323411356 -71.5558642296241 
2.165                          0.912328612716896 -71.9699058450575 
2.1675                         0.911680700298303 -72.3858184046185 
2.17                           0.911020231712183 -72.8036401209448 
2.1725                         0.910346839475784 -73.2234102900745 
2.175                          0.909660142500197 -73.6451693293678 
2.1775                         0.908959745495292 -74.0689588169589 
2.18                           0.908245238344849 -74.4948215328051 
2.1825                         0.907516195450193 -74.9228015014052 
2.185                          0.906772175040588 -75.3529440362605 
2.1875                         0.906012718448506 -75.7852957861573 
2.19                           0.905237349347784 -76.2199047833513 
2.1925                         0.904445572952571 -76.6568204937402 
2.195                          0.903636875174805 -77.0960938691121 
2.1975                         0.902810721737869 -77.537777401564 
2.2                            0.901966557243888 -77.9819251801864 
2.2025                         0.901103804191979 -78.4285929501168 
2.205                          0.900221861944629 -78.8778381740671 
2.2075                         0.899320105639163 -79.3297200964356 
2.21                           0.898397885041088 -79.7842998101201 
2.2125                         0.897454523335911 -80.2416403261504 
2.215                          0.896489315855792 -80.7018066462682 
2.2175                         0.895501528737187 -81.1648658385824 
2.22                           0.894490397505384 -81.6308871164372 
2.2225                         0.893455125581573 -82.0999419206342 
2.225                          0.89239488270783 -82.572104005154 
2.2275                         0.891308803285101 -83.0474495265314 
2.23                           0.890195984618947 -83.5260571370393 
2.2325                         0.889055485067523 -84.0080080818475 
2.235                          0.887886322085857 -84.4933863003219 
2.2375                         0.886687470160195 -84.9822785316406 
2.24                           0.885457858625728 -85.4747744249042 
2.2425                         0.884196369360642 -85.970966653925 
2.245                          0.88290183434897 -86.4709510368825 
2.2475                         0.881573033104288 -86.9748266610388 
2.25                           0.88020868994578 -87.4826960127088 
2.2525                         0.878807471117708 -87.9946651126837 
2.255                          0.877367981742764 -88.5108436573092 
2.2575                         0.875888762599228 -89.0313451654174 
2.26                           0.874368286711242 -89.5562871313161 
2.2625                         0.8728049557409  -90.0857911840305 
2.265                          0.87119709617021 -90.6199832529949 
2.2675                         0.869542955260274 -91.1589937403803 
2.27                           0.867840696774381 -91.7029577002383 
2.2725                         0.866088396450932 -92.2520150246295 
2.275                          0.864284037211417 -92.8063106368867 
2.2775                         0.862425504087878 -93.3659946921461 
2.28                           0.860510578853529 -93.931222785254 
2.2825                         0.858536934339426 -94.5021561661249 
2.285                          0.856502128419325 -95.0789619625911 
2.2875                         0.854403597644085 -95.661813410738 
2.29                           0.852238650506257 -96.2508900926651 
2.2925                         0.8500044603148  -96.8463781815477 
2.295                          0.84769805765924 -97.4484706937985 
2.2975                         0.845316322442027 -98.0573677480358 
2.3                            0.842855975457404 -98.673276830458 
2.3025                         0.840313569494793 -99.2964130660997 
2.305                          0.837685479944562 -99.926999495294 
2.3075                         0.834967894884147 -100.565267354494 
2.31                           0.832156804622827 -101.21145636041 
2.3125                         0.829247990684167 -101.86581499617 
2.315                          0.826237014206245 -102.528600797957 
2.3175                         0.82311920374133 -103.200080640248 
2.32                           0.819889642438912 -103.880531017413 
2.3225                         0.816543154598822 -104.570238319007 
2.325                          0.813074291584918 -105.269499095606 
2.3275                         0.809477317094547 -105.978620311451 
2.33                           0.805746191784846 -106.697919579532 
2.3325                         0.801874557264258 -107.427725373952 
2.335                          0.797855719466471 -108.168377213576 
2.3375                         0.793682631434804 -108.92022580993 
2.34                           0.789347875557967 -109.683633171173 
2.3425                         0.784843645313643 -110.458972652615 
2.345                          0.780161726594701 -111.24662894272 
2.3475                         0.775293478714608 -112.046997971748 
2.35                           0.770229815214186 -112.860486728161 
2.3525                         0.764961184621751 -113.687512965534 
2.355                          0.759477551353508 -114.528504780017 
2.3575                         0.753768376981428 -115.383900035243 
2.36                           0.74782260214236 -116.254145607963 
2.3625                         0.741628629415484 -117.139696423489 
2.365                          0.735174307556062 -118.041014245181 
2.3675                         0.7284469175425  -118.958566176598 
2.37                           0.72143316097151 -119.892822828339 
2.3725                         0.714119151423219 -120.844256093995 
2.375                          0.706490409514821 -121.81333647065 
2.3775                         0.698531862467802 -122.800529848809 
2.38                           0.690227849129871 -123.806293684162 
2.3825                         0.681562131517854 -124.831072448697 
2.385                          0.672517914080721 -125.875292240837 
2.3875                         0.663077872021031 -126.939354412659 
2.39                           0.653224190155434 -128.02362804587 
2.3925                         0.642938613937015 -129.128441075657 
2.395                          0.632202514399099 -130.25406982087 
2.3975                         0.620996968905532 -131.40072662768 
2.4                            0.609302859698532 -132.568545268195 
2.4025                         0.597100992312887 -133.757563650488 
2.405                          0.584372235963691 -134.967703284861 
2.4075                         0.571097688002526 -136.198744802708 
2.41                           0.557258864461665 -137.450298624209 
2.4125                         0.542837918556481 -138.721769597779 
2.415                          0.527817888784081 -140.012314055876 
2.4175                         0.512182977938573 -141.320787201068 
2.42                           0.495918863967874 -142.645677981607 
2.4225                         0.479013043148685 -143.985027527217 
2.425                          0.461455205608552 -145.336325622352 
2.4275                         0.443237642876087 -146.696377324295 
2.43                           0.424355687065039 -148.061128248053 
2.4325                         0.404808181789049 -149.425431513527 
2.435                          0.384597986459544 -150.782730654448 
2.4375                         0.363732519094851 -152.124618788977 
2.44                           0.342224349669316 -153.440211230088 
2.4425                         0.320091869098365 -154.715229413806 
2.445                          0.297360083389693 -155.930625027043 
2.4475                         0.274061628633889 -157.060447558631 
2.45                           0.250238192020343 -158.068419885118 
2.4525                         0.225942705012472 -158.902211224796 
2.455                          0.201243061010052 -159.483396662067 
2.4575                         0.176228991474212 -159.688850415298 
2.46                           0.151025917902796 -159.313916227113 
2.4625                         0.125825557001762 -157.993579588353 
2.465                          0.100961291774692 -155.017907479546 
2.4675                         0.0771193661788504 -148.861095588431 
2.47                           0.0560092668462835 -135.999695179118 
2.4725                         0.0423137811599067 -110.068633596414 
2.475                          0.0438325208601055 -75.2768079394276 
2.4775                         0.0593977810597675 -52.0488724633518 
2.48                           0.0812056772830143 -40.7814830421678 
2.4825                         0.105303830071539 -35.3685655187099 
2.485                          0.130255872141986 -32.7699357375191 
2.4875                         0.15546546807346 -31.6625725672959 
2.49                           0.180632940187826 -31.4197547535115 
2.4925                         0.205581056068954 -31.7138440608947 
2.495                          0.230191360875203 -32.358596263886 
2.4975                         0.25437780059499 -33.2406952718711 
2.5                            0.278074590489056 -34.2872894742455 
2.5025                         0.301230111672156 -35.4493849091397 
2.505                          0.323803569806683 -36.6927898043948 
2.5075                         0.345762997632036 -37.9929036664596 
2.51                           0.367083940976149 -39.331577988955 
2.5125                         0.387748504330511 -40.695148619249 
2.515                          0.407744591474011 -42.0731589643109 
2.5175                         0.427065256207727 -43.4575055396141 
2.52                           0.44570811956523 -44.8418500559058 
2.5225                         0.463674831817974 -46.2212045408303 
2.525                          0.480970569331629 -47.5916316945453 
2.5275                         0.497603562479807 -48.9500237958468 
2.53                           0.513584653853191 -50.2939363219008 
2.5325                         0.528926887279869 -51.6214604577242 
2.535                          0.543645128480861 -52.9311237829009 
2.5375                         0.557755717982487 -54.2218117497465 
2.54                           0.571276156467801 -55.492704772297 
2.5425                         0.584224822233283 -56.7432272318246 
2.545                          0.596620719917329 -57.973005722107 
2.5475                         0.608483259232066 -59.181834564411 
2.55                           0.619832062083051 -60.3696471199901 
2.5525                         0.630686796207022 -61.5364917832769 
2.555                          0.641067033292735 -62.6825117961063 
2.5575                         0.650992129463521 -63.8079282118237 
2.56                           0.660481125980965 -64.9130254782219 
2.5625                         0.669552668063458 -65.998139213733 
2.565                          0.678224939789553 -67.0636458318216 
2.5675                         0.686515613162216 -68.1099537308023 
2.57                           0.694441809536939 -69.1374958151246 
2.5725                         0.70202007175586 -70.146723152916 
2.575                          0.709266345474956 -71.1380996057179 
2.5775                         0.716195968317004 -72.112097291655 
2.58                           0.722823665625294 -73.069192764068 
2.5825                         0.729163551729283 -74.0098638048694 
2.585                          0.735229135761648 -74.9345867462988 
2.5875                         0.741033331185103 -75.8438342468773 
2.59                           0.746588468296601 -76.7380734576605 
2.5925                         0.751906309075597 -77.6177645236376 
2.595                          0.756998063832323 -78.4833593726385 
2.5975                         0.761874409191662 -79.3353007505388 
2.6                            0.766545507018968 -80.1740214671211 
2.6025                         0.771021023956359 -80.999943821723 
2.605                          0.775310151292676 -81.8134791819752 
2.6075                         0.779421624937737 -82.6150276925029 
2.61                           0.783363745312806 -83.4049780936041 
2.6125                         0.787144397004636 -84.1837076326068 
2.615                          0.790771068060991 -84.9515820529754 
2.6175                         0.794250868831509 -85.7089556482669 
2.62                           0.797590550279916 -86.4561713698227 
2.6225                         0.800796521712211 -87.1935609786195 
2.625                          0.803874867881208 -87.9214452330494 
2.6275                         0.806831365440794 -88.6401341055594 
2.63                           0.80967149873426 -89.3499270220967 
2.6325                         0.812400474909883 -90.0511131191816 
2.635                          0.815023238364304 -90.7439715141956 
2.6375                         0.817544484520107 -91.4287715851276 
2.64                           0.819968672948702 -92.1057732565994 
2.6425                         0.822300039853313 -92.7752272894827 
2.645                          0.824542609929695 -93.4373755718524 
2.6475                         0.826700207624333 -94.0924514093852 
2.65                           0.828776467811407 -94.7406798136397 
2.6525                         0.830774845910821 -95.3822777869224 
2.655                          0.832698627470242 -96.0174546026857 
2.6575                         0.834550937234362 -96.6464120806035 
2.66                           0.836334747724629 -97.2693448556486 
2.6625                         0.838052887352473 -97.8864406406405 
2.665                          0.83970804808872 -98.4978804818656 
2.6675                         0.841302792711307 -99.1038390074715 
2.67                           0.842839561652876 -99.7044846684397 
2.6725                         0.844320679469078 -100.299979972008 
2.675                          0.845748360947684 -100.89048170749 
2.6775                         0.847124716877831 -101.476141164478 
2.68                           0.848451759497906 -102.057104343488 
2.6825                         0.849731407639753 -102.633512159109 
2.685                          0.850965491586089 -103.205500635775 
2.6875                         0.852155757657176 -103.773201096298 
2.69                           0.853303872542021 -104.336740343314 
2.6925                         0.854411427388584 -104.896240833807 
2.695                          0.85547994166673 -105.451820846908 
2.6975                         0.856510866816905 -106.00359464515 
2.7                            0.857505589696841 -106.551672629373 
2.7025                         0.858465435837899 -107.096161487502 
2.705                          0.859391672522009 -107.637164337376 
2.7075                         0.860285511689567 -108.174780863845 
2.71                           0.86114811268803 -108.709107450348 
2.7125                         0.861980584870419 -109.240237305156 
2.715                          0.862783990052382 -109.768260582484 
